
T19D0 000:321 SEGGER J-Link V5.02f Log File (0000ms, 0285ms total)
T19D0 000:321 DLL Compiled: Oct  2 2015 20:51:34 (0000ms, 0285ms total)
T19D0 000:321 Logging started @ 2018-07-29 11:13 (0000ms, 0285ms total)
T19D0 000:321 JLINK_SetWarnOutHandler(...) (0000ms, 0285ms total)
T19D0 000:321 JLINK_OpenEx(...)
Firmware: J-Link ARM V8 compiled Nov 28 2014 13:44:46
Hardware: V8.00
S/N: 1701138512
Feature(s): RDI,FlashDL,FlashBP,JFlash,GDBFull  returns O.K. (0272ms, 0557ms total)
T19D0 000:593 JLINK_SetErrorOutHandler(...) (0000ms, 0557ms total)
T19D0 000:593 JLINK_ExecCommand("ProjectFile = "C:\Users\wangbingbing\Desktop\华为LiteOS复旦微合作\LiteOS_developer_Fmsh_C50V20\LiteOS_developer_Fmsh_C50V20\LiteOS_developer\targets\FM33A0XX_TesterV1.0\JLinkSettings.ini"", ...)Device "UNSPECIFIED" selected.  returns 0x00 (0008ms, 0565ms total)
T19D0 000:606 JLINK_ExecCommand("Device = FM33A04XX", ...)Device "UNSPECIFIED" selected.  returns 0x00 (0004ms, 0569ms total)
T19D0 000:610 JLINK_ExecCommand("DisableConnectionTimeout", ...)  returns 0x01 (0000ms, 0569ms total)
T19D0 000:610 JLINK_GetHardwareVersion()  returns 0x13880 (0000ms, 0569ms total)
T19D0 000:610 JLINK_GetDLLVersion()  returns 50206 (0000ms, 0569ms total)
T19D0 000:610 JLINK_GetFirmwareString(...) (0000ms, 0569ms total)
T19D0 000:625 JLINK_GetDLLVersion()  returns 50206 (0000ms, 0569ms total)
T19D0 000:625 JLINK_GetCompileDateTime() (0000ms, 0569ms total)
T19D0 000:626 JLINK_GetFirmwareString(...) (0000ms, 0569ms total)
T19D0 000:627 JLINK_GetHardwareVersion()  returns 0x13880 (0000ms, 0569ms total)
T19D0 000:632 JLINK_TIF_Select(JLINKARM_TIF_SWD)  returns 0x00 (0004ms, 0573ms total)
T19D0 000:636 JLINK_SetSpeed(2000) (0001ms, 0574ms total)
T19D0 000:637 JLINK_GetId() >0x108 TIF>Found SWD-DP with ID 0x0BB11477 >0x0D TIF> >0x21 TIF> >0x0D TIF> >0x28 TIF> >0x0D TIF> >0x28 TIF> >0x0D TIF> >0x21 TIF> >0x0D TIF> >0x28 TIF> >0x0D TIF> >0x21 TIF> >0x0D TIF> >0x21 TIF> >0x0D TIF> >0x21 TIF> >0x0D TIF> >0x21 TIF> >0x0D TIF> >0x28 TIF> >0x0D TIF> >0x28 TIF> >0x0D TIF> >0x21 TIF> >0x0D TIF> >0x28 TIF> >0x0D TIF> >0x28 TIF> >0x0D TIF> >0x28 TIF> >0x0D TIF> >0x21 TIF> >0x0D TIF> >0x21 TIF> >0x0D TIF> >0x28 TIF> >0x0D TIF> >0x21 TIF> >0x0D TIF>
 >0x21 TIF>Found Cortex-M0 r0p0, Little endian. -- CPU_ReadMem(4 bytes @ 0xE000EDF0) -- CPU_WriteMem(4 bytes @ 0xE000EDF0) -- CPU_ReadMem(4 bytes @ 0xE0002000)FPUnit: 4 code (BP) slots and 0 literal slots -- CPU_ReadMem(4 bytes @ 0xE000EDFC) -- CPU_WriteMem(4 bytes @ 0xE000EDFC) -- CPU_ReadMem(4 bytes @ 0xE0001000) -- CPU_WriteMem(4 bytes @ 0xE0001000)CoreSight components:ROMTbl 0 @ E00FF000 -- CPU_ReadMem(16 bytes @ 0xE00FF000) -- CPU_ReadMem(16 bytes @ 0xE000EFF0) -- CPU_ReadMem(16 bytes @ 0xE000EFE0)
ROMTbl 0 [0]: FFF0F000, CID: B105E00D, PID: 000BB00D SCS -- CPU_ReadMem(16 bytes @ 0xE0001FF0) -- CPU_ReadMem(16 bytes @ 0xE0001FE0)ROMTbl 0 [1]: FFF02000, CID: B105E00D, PID: 000BB00A DWT -- CPU_ReadMem(16 bytes @ 0xE0002FF0) -- CPU_ReadMem(16 bytes @ 0xE0002FE0)ROMTbl 0 [2]: FFF03000, CID: B105E00D, PID: 000BB00B FPB >0x0D TIF> >0x21 TIF>  returns 0x0BB11477 (0077ms, 0651ms total)
T19D0 000:714 JLINK_GetDLLVersion()  returns 50206 (0000ms, 0651ms total)
T19D0 000:714 JLINK_CORE_GetFound()  returns 0x60000FF (0000ms, 0651ms total)
T19D0 000:714 JLINK_GetDebugInfo(0x100) -- Value=0xE00FF003  returns 0x00 (0000ms, 0651ms total)
T19D0 000:716 JLINK_GetDebugInfo(0x100) -- Value=0xE00FF003  returns 0x00 (0000ms, 0651ms total)
T19D0 000:716 JLINK_GetDebugInfo(0x101) -- Value=0x00000000  returns 0x00 (0000ms, 0651ms total)
T19D0 000:716 JLINK_ReadMem (0xE0041FF0, 0x0010 Bytes, ...) -- CPU is running -- CPU_ReadMem(16 bytes @ 0xE0041FF0) - Data: 00 00 00 00 00 00 00 00 00 00 00 00 00 00 00 00  returns 0x00 (0002ms, 0653ms total)
T19D0 000:718 JLINK_GetDebugInfo(0x102) -- Value=0x00000000  returns 0x00 (0000ms, 0653ms total)
T19D0 000:718 JLINK_GetDebugInfo(0x103) -- Value=0x00000000  returns 0x00 (0000ms, 0653ms total)
T19D0 000:718 JLINK_ReadMem (0xE0040FF0, 0x0010 Bytes, ...) -- CPU is running -- CPU_ReadMem(16 bytes @ 0xE0040FF0) - Data: 00 00 00 00 00 00 00 00 00 00 00 00 00 00 00 00  returns 0x00 (0001ms, 0654ms total)
T19D0 000:719 JLINK_GetDebugInfo(0x104) -- Value=0xE0000000  returns 0x00 (0000ms, 0654ms total)
T19D0 000:719 JLINK_GetDebugInfo(0x105) -- Value=0xE0001000  returns 0x00 (0000ms, 0654ms total)
T19D0 000:719 JLINK_GetDebugInfo(0x106) -- Value=0xE0002000  returns 0x00 (0000ms, 0654ms total)
T19D0 000:719 JLINK_GetDebugInfo(0x107) -- Value=0xE000E000  returns 0x00 (0000ms, 0654ms total)
T19D0 000:719 JLINK_GetDebugInfo(0x10C) -- Value=0xE000EDF0  returns 0x00 (0000ms, 0654ms total)
T19D0 000:719 JLINK_ReadMemU32(0xE000ED00, 0x0001 Items, ...) -- CPU is running -- CPU_ReadMem(4 bytes @ 0xE000ED00) - Data: 00 C3 0C 41  returns 0x01 (0001ms, 0655ms total)
T19D0 000:720 JLINK_SetResetType(JLINKARM_RESET_TYPE_ADI)  returns JLINKARM_RESET_TYPE_NORMAL (0000ms, 0655ms total)
T19D0 000:720 JLINK_Reset() -- CPU is running -- CPU_WriteMem(4 bytes @ 0xE000EDF0) -- CPU is running -- CPU_WriteMem(4 bytes @ 0xE000EDFC) -- CPU_WriteMem(4 bytes @ 0xE000EDF0) -- CPU_WriteMem(4 bytes @ 0xE000EDFC) -- CPU_ReadMem(4 bytes @ 0xE000EDF0) -- CPU_WriteMem(4 bytes @ 0xE000EDFC) -- CPU_WriteMem(4 bytes @ 0xE000ED0C) -- CPU_ReadMem(4 bytes @ 0xE000EDF0) -- CPU_ReadMem(4 bytes @ 0xE000EDF0) -- CPU_WriteMem(4 bytes @ 0xE000EDF0) -- CPU_WriteMem(4 bytes @ 0xE000EDFC) -- CPU is running
 -- CPU_ReadMem(4 bytes @ 0xE000EDF0) -- CPU_WriteMem(4 bytes @ 0xE0002000) -- CPU_ReadMem(4 bytes @ 0xE000EDFC) -- CPU_ReadMem(4 bytes @ 0xE0001000) -- CPU_WriteMem(4 bytes @ 0xE0001000) (0162ms, 0817ms total)
T19D0 000:882 JLINK_Halt()  returns 0x00 (0000ms, 0817ms total)
T19D0 000:882 JLINK_IsHalted()  returns TRUE (0000ms, 0817ms total)
T19D0 000:882 JLINK_ReadMemU32(0xE000EDF0, 0x0001 Items, ...) -- CPU_ReadMem(4 bytes @ 0xE000EDF0) - Data: 03 00 03 00  returns 0x01 (0001ms, 0818ms total)
T19D0 000:883 JLINK_WriteU32(0xE000EDF0, 0xA05F0003) -- CPU_WriteMem(4 bytes @ 0xE000EDF0)  returns 0x00 (0001ms, 0819ms total)
T19D0 000:884 JLINK_WriteU32(0xE000EDFC, 0x01000000) -- CPU_WriteMem(4 bytes @ 0xE000EDFC)  returns 0x00 (0001ms, 0820ms total)
T19D0 000:891 JLINK_GetHWStatus(...)  returns 0x00 (0001ms, 0821ms total)
T19D0 000:897 JLINK_GetNumBPUnits(Type = 0xFFFFFF00)  returns 0x04 (0000ms, 0821ms total)
T19D0 000:897 JLINK_GetNumBPUnits(Type = 0xF0)  returns 0x2000 (0000ms, 0821ms total)
T19D0 000:897 JLINK_GetNumWPUnits()  returns 0x01 (0000ms, 0821ms total)
T19D0 000:903 JLINK_GetSpeed()  returns 0x7D0 (0000ms, 0821ms total)
T19D0 000:905 JLINK_ReadMemU32(0xE000E004, 0x0001 Items, ...) -- CPU_ReadMem(4 bytes @ 0xE000E004) - Data: 00 00 00 00  returns 0x01 (0002ms, 0823ms total)
T19D0 000:910 JLINK_ReadReg(R0)  returns 0x00000007 (0000ms, 0823ms total)
T19D0 000:910 JLINK_ReadReg(R1)  returns 0x20000A3C (0000ms, 0823ms total)
T19D0 000:910 JLINK_ReadReg(R2)  returns 0x000000C0 (0000ms, 0823ms total)
T19D0 000:910 JLINK_ReadReg(R3)  returns 0x000000C0 (0000ms, 0823ms total)
T19D0 000:910 JLINK_ReadReg(R4)  returns 0x00000000 (0000ms, 0823ms total)
T19D0 000:910 JLINK_ReadReg(R5)  returns 0x00000001 (0000ms, 0823ms total)
T19D0 000:910 JLINK_ReadReg(R6)  returns 0x06060606 (0000ms, 0823ms total)
T19D0 000:910 JLINK_ReadReg(R7)  returns 0x07070707 (0000ms, 0823ms total)
T19D0 000:910 JLINK_ReadReg(R8)  returns 0x08080808 (0001ms, 0824ms total)
T19D0 000:911 JLINK_ReadReg(R9)  returns 0x09090909 (0000ms, 0824ms total)
T19D0 000:911 JLINK_ReadReg(R10)  returns 0x10101010 (0000ms, 0824ms total)
T19D0 000:911 JLINK_ReadReg(R11)  returns 0x11111111 (0000ms, 0824ms total)
T19D0 000:911 JLINK_ReadReg(R12)  returns 0x00000000 (0000ms, 0824ms total)
T19D0 000:911 JLINK_ReadReg(R13 (SP))  returns 0x20001DF8 (0000ms, 0824ms total)
T19D0 000:911 JLINK_ReadReg(R14)  returns 0x000068E9 (0000ms, 0824ms total)
T19D0 000:911 JLINK_ReadReg(R15 (PC))  returns 0x000002B4 (0000ms, 0824ms total)
T19D0 000:911 JLINK_ReadReg(XPSR)  returns 0xC1000000 (0000ms, 0824ms total)
T19D0 000:911 JLINK_ReadReg(MSP)  returns 0x20001DF8 (0000ms, 0824ms total)
T19D0 000:911 JLINK_ReadReg(PSP)  returns 0x20003E18 (0000ms, 0824ms total)
T19D0 000:911 JLINK_ReadReg(CFBP)  returns 0x00000000 (0000ms, 0824ms total)
T19D0 000:922 JLINK_WriteMem(0x4000022C, 0x0004 Bytes, ...) - Data: 20 00 06 00 -- CPU_WriteMem(4 bytes @ 0x4000022C)  returns 0x04 (0002ms, 0826ms total)
T19D0 000:937 JLINK_WriteMem(0x40001014, 0x0004 Bytes, ...) - Data: 00 02 00 80 -- CPU_WriteMem(4 bytes @ 0x40001014)  returns 0x04 (0001ms, 0827ms total)
T19D0 000:950 JLINK_WriteMem(0x40001014, 0x0004 Bytes, ...) - Data: 01 02 00 80 -- CPU_WriteMem(4 bytes @ 0x40001014)  returns 0x04 (0001ms, 0828ms total)
T19D0 000:964 JLINK_WriteMem(0x40001018, 0x0004 Bytes, ...) - Data: 96 96 96 96 -- CPU_WriteMem(4 bytes @ 0x40001018)  returns 0x04 (0001ms, 0829ms total)
T19D0 000:980 JLINK_WriteMem(0x40001018, 0x0004 Bytes, ...) - Data: 7D 7D 7D 7D -- CPU_WriteMem(4 bytes @ 0x40001018)  returns 0x04 (0001ms, 0830ms total)
T19D0 000:995 JLINK_WriteMem(0x00000000, 0x0004 Bytes, ...) - Data: CD AB 34 12 -- CPU_WriteMem(4 bytes @ 0x00000000)  returns 0x04 (0001ms, 0831ms total)
T19D0 002:509 JLINK_WriteMem(0x40001018, 0x0004 Bytes, ...) - Data: 00 00 00 00 -- CPU_WriteMem(4 bytes @ 0x40001018)  returns 0x04 (0002ms, 0833ms total)
T19D0 002:511 JLINK_ReadMem (0x40001014, 0x0004 Bytes, ...) -- CPU_ReadMem(4 bytes @ 0x40001014) - Data: 00 02 00 80  returns 0x00 (0001ms, 0834ms total)
T19D0 002:513 JLINK_Halt()  returns 0x00 (0001ms, 0835ms total)
T19D0 002:514 JLINK_IsHalted()  returns TRUE (0000ms, 0835ms total)
T19D0 002:516 JLINK_WriteMem(0x20000000, 0x0184 Bytes, ...) - Data: 00 BE 0A E0 0D 78 2D 06 68 40 08 24 40 00 00 D3 ... -- CPU_WriteMem(388 bytes @ 0x20000000)  returns 0x184 (0005ms, 0840ms total)
T19D0 002:521 JLINK_WriteReg(R0, 0x00000000)  returns 0x00 (0000ms, 0840ms total)
T19D0 002:522 JLINK_WriteReg(R1, 0x00B71B00)  returns 0x00 (0000ms, 0841ms total)
T19D0 002:522 JLINK_WriteReg(R2, 0x00000002)  returns 0x00 (0000ms, 0841ms total)
T19D0 002:522 JLINK_WriteReg(R3, 0x00000000)  returns 0x00 (0000ms, 0841ms total)
T19D0 002:522 JLINK_WriteReg(R4, 0x00000000)  returns 0x00 (0000ms, 0841ms total)
T19D0 002:522 JLINK_WriteReg(R5, 0x00000000)  returns 0x00 (0000ms, 0841ms total)
T19D0 002:522 JLINK_WriteReg(R6, 0x00000000)  returns 0x00 (0000ms, 0841ms total)
T19D0 002:522 JLINK_WriteReg(R7, 0x00000000)  returns 0x00 (0000ms, 0841ms total)
T19D0 002:522 JLINK_WriteReg(R8, 0x00000000)  returns 0x00 (0000ms, 0841ms total)
T19D0 002:522 JLINK_WriteReg(R9, 0x20000180)  returns 0x00 (0000ms, 0841ms total)
T19D0 002:522 JLINK_WriteReg(R10, 0x00000000)  returns 0x00 (0000ms, 0841ms total)
T19D0 002:522 JLINK_WriteReg(R11, 0x00000000)  returns 0x00 (0000ms, 0841ms total)
T19D0 002:522 JLINK_WriteReg(R12, 0x00000000)  returns 0x00 (0000ms, 0841ms total)
T19D0 002:522 JLINK_WriteReg(R13 (SP), 0x20001000)  returns 0x00 (0000ms, 0841ms total)
T19D0 002:522 JLINK_WriteReg(R14, 0x20000001)  returns 0x00 (0000ms, 0841ms total)
T19D0 002:522 JLINK_WriteReg(R15 (PC), 0x2000005E)  returns 0x00 (0000ms, 0841ms total)
T19D0 002:522 JLINK_WriteReg(XPSR, 0x01000000)  returns 0x00 (0000ms, 0841ms total)
T19D0 002:522 JLINK_WriteReg(MSP, 0x20001000)  returns 0x00 (0000ms, 0841ms total)
T19D0 002:522 JLINK_WriteReg(PSP, 0x20001000)  returns 0x00 (0000ms, 0841ms total)
T19D0 002:522 JLINK_WriteReg(CFBP, 0x00000000)  returns 0x00 (0000ms, 0841ms total)
T19D0 002:522 JLINK_SetBPEx(Addr = 0x20000000, Type = 0xFFFFFFF2) -- CPU_ReadMem(4 bytes @ 0x20000000) -- CPU_WriteMem(4 bytes @ 0x20000000) -- CPU_ReadMem(4 bytes @ 0x20000000) -- CPU_WriteMem(4 bytes @ 0x20000000) -- CPU_ReadMem(2 bytes @ 0x20000000)  returns 0x00000001 (0004ms, 0845ms total)
T19D0 002:526 JLINK_Go() -- CPU_WriteMem(2 bytes @ 0x20000000) -- CPU_ReadMem(4 bytes @ 0xE0001000) -- CPU_WriteMem(4 bytes @ 0xE0001000) -- CPU_WriteMem(4 bytes @ 0xE0002008) -- CPU_WriteMem(4 bytes @ 0xE000200C) -- CPU_WriteMem(4 bytes @ 0xE0002010) -- CPU_WriteMem(4 bytes @ 0xE0002014) -- CPU_WriteMem(4 bytes @ 0xE0001004) (0012ms, 0857ms total)
T19D0 002:538 JLINK_IsHalted() -- CPU_ReadMem(2 bytes @ 0x20000000)  returns TRUE (0004ms, 0861ms total)
T19D0 002:542 JLINK_ReadReg(R15 (PC))  returns 0x20000000 (0000ms, 0857ms total)
T19D0 002:542 JLINK_ClrBPEx(BPHandle = 0x00000001)  returns 0x00 (0000ms, 0857ms total)
T19D0 002:542 JLINK_ReadReg(R0)  returns 0x00000000 (0000ms, 0857ms total)
T19D0 002:543 JLINK_WriteMem(0x20000184, 0x027C Bytes, ...) - Data: F8 1D 00 20 B5 02 00 00 BD 02 00 00 BF 02 00 00 ... -- CPU_WriteMem(636 bytes @ 0x20000184)  returns 0x27C (0007ms, 0864ms total)
T19D0 002:550 JLINK_WriteMem(0x20000400, 0x0184 Bytes, ...) - Data: 98 46 A1 46 AA 46 B3 46 BC 46 81 F3 09 88 24 39 ... -- CPU_WriteMem(388 bytes @ 0x20000400)  returns 0x184 (0004ms, 0868ms total)
T19D0 002:554 JLINK_WriteReg(R0, 0x00000000)  returns 0x00 (0000ms, 0868ms total)
T19D0 002:554 JLINK_WriteReg(R1, 0x00000400)  returns 0x00 (0000ms, 0868ms total)
T19D0 002:554 JLINK_WriteReg(R2, 0x20000184)  returns 0x00 (0000ms, 0868ms total)
T19D0 002:554 JLINK_WriteReg(R3, 0x00000000)  returns 0x00 (0000ms, 0868ms total)
T19D0 002:554 JLINK_WriteReg(R4, 0x00000000)  returns 0x00 (0000ms, 0868ms total)
T19D0 002:554 JLINK_WriteReg(R5, 0x00000000)  returns 0x00 (0000ms, 0868ms total)
T19D0 002:554 JLINK_WriteReg(R6, 0x00000000)  returns 0x00 (0000ms, 0868ms total)
T19D0 002:554 JLINK_WriteReg(R7, 0x00000000)  returns 0x00 (0000ms, 0868ms total)
T19D0 002:554 JLINK_WriteReg(R8, 0x00000000)  returns 0x00 (0000ms, 0868ms total)
T19D0 002:554 JLINK_WriteReg(R9, 0x20000180)  returns 0x00 (0000ms, 0868ms total)
T19D0 002:554 JLINK_WriteReg(R10, 0x00000000)  returns 0x00 (0001ms, 0869ms total)
T19D0 002:555 JLINK_WriteReg(R11, 0x00000000)  returns 0x00 (0000ms, 0869ms total)
T19D0 002:555 JLINK_WriteReg(R12, 0x00000000)  returns 0x00 (0000ms, 0869ms total)
T19D0 002:555 JLINK_WriteReg(R13 (SP), 0x20001000)  returns 0x00 (0000ms, 0869ms total)
T19D0 002:555 JLINK_WriteReg(R14, 0x20000001)  returns 0x00 (0000ms, 0869ms total)
T19D0 002:555 JLINK_WriteReg(R15 (PC), 0x20000104)  returns 0x00 (0000ms, 0869ms total)
T19D0 002:555 JLINK_WriteReg(XPSR, 0x01000000)  returns 0x00 (0000ms, 0869ms total)
T19D0 002:555 JLINK_WriteReg(MSP, 0x20001000)  returns 0x00 (0000ms, 0869ms total)
T19D0 002:555 JLINK_WriteReg(PSP, 0x20001000)  returns 0x00 (0000ms, 0869ms total)
T19D0 002:555 JLINK_WriteReg(CFBP, 0x00000000)  returns 0x00 (0000ms, 0869ms total)
T19D0 002:555 JLINK_SetBPEx(Addr = 0x20000000, Type = 0xFFFFFFF2)  returns 0x00000002 (0000ms, 0869ms total)
T19D0 002:555 JLINK_Go() -- CPU_ReadMem(4 bytes @ 0xE0001000) -- CPU_WriteMem(4 bytes @ 0xE0001000) (0003ms, 0872ms total)
T19D0 002:558 JLINK_IsHalted()  returns FALSE (0001ms, 0873ms total)
T19D0 002:569 JLINK_IsHalted()  returns FALSE (0001ms, 0873ms total)
T19D0 002:571 JLINK_IsHalted()  returns FALSE (0001ms, 0873ms total)
T19D0 002:573 JLINK_IsHalted()  returns FALSE (0001ms, 0873ms total)
T19D0 002:575 JLINK_IsHalted()  returns FALSE (0001ms, 0873ms total)
T19D0 002:577 JLINK_IsHalted()  returns FALSE (0001ms, 0873ms total)
T19D0 002:579 JLINK_IsHalted()  returns FALSE (0001ms, 0873ms total)
T19D0 002:581 JLINK_IsHalted()  returns FALSE (0001ms, 0873ms total)
T19D0 002:583 JLINK_IsHalted() -- CPU_ReadMem(2 bytes @ 0x20000000)  returns TRUE (0004ms, 0876ms total)
T19D0 002:587 JLINK_ReadReg(R15 (PC))  returns 0x20000000 (0000ms, 0872ms total)
T19D0 002:587 JLINK_ClrBPEx(BPHandle = 0x00000002)  returns 0x00 (0000ms, 0872ms total)
T19D0 002:587 JLINK_ReadReg(R0)  returns 0x00000000 (0000ms, 0872ms total)
T19D0 002:588 JLINK_WriteMem(0x20000184, 0x027C Bytes, ...) - Data: 0E A6 01 25 01 E0 C0 46 C0 46 00 9F 00 24 24 37 ... -- CPU_WriteMem(636 bytes @ 0x20000184)  returns 0x27C (0007ms, 0879ms total)
T19D0 002:595 JLINK_WriteMem(0x20000400, 0x0184 Bytes, ...) - Data: 0F D1 03 E0 00 20 C0 43 07 B0 F0 BD 01 20 80 02 ... -- CPU_WriteMem(388 bytes @ 0x20000400)  returns 0x184 (0004ms, 0883ms total)
T19D0 002:600 JLINK_WriteReg(R0, 0x00000400)  returns 0x00 (0000ms, 0884ms total)
T19D0 002:600 JLINK_WriteReg(R1, 0x00000400)  returns 0x00 (0000ms, 0884ms total)
T19D0 002:600 JLINK_WriteReg(R2, 0x20000184)  returns 0x00 (0000ms, 0884ms total)
T19D0 002:600 JLINK_WriteReg(R3, 0x00000000)  returns 0x00 (0000ms, 0884ms total)
T19D0 002:600 JLINK_WriteReg(R4, 0x00000000)  returns 0x00 (0000ms, 0884ms total)
T19D0 002:600 JLINK_WriteReg(R5, 0x00000000)  returns 0x00 (0000ms, 0884ms total)
T19D0 002:600 JLINK_WriteReg(R6, 0x00000000)  returns 0x00 (0000ms, 0884ms total)
T19D0 002:600 JLINK_WriteReg(R7, 0x00000000)  returns 0x00 (0000ms, 0884ms total)
T19D0 002:600 JLINK_WriteReg(R8, 0x00000000)  returns 0x00 (0000ms, 0884ms total)
T19D0 002:600 JLINK_WriteReg(R9, 0x20000180)  returns 0x00 (0000ms, 0884ms total)
T19D0 002:600 JLINK_WriteReg(R10, 0x00000000)  returns 0x00 (0000ms, 0884ms total)
T19D0 002:600 JLINK_WriteReg(R11, 0x00000000)  returns 0x00 (0000ms, 0884ms total)
T19D0 002:600 JLINK_WriteReg(R12, 0x00000000)  returns 0x00 (0000ms, 0884ms total)
T19D0 002:600 JLINK_WriteReg(R13 (SP), 0x20001000)  returns 0x00 (0000ms, 0884ms total)
T19D0 002:600 JLINK_WriteReg(R14, 0x20000001)  returns 0x00 (0000ms, 0884ms total)
T19D0 002:600 JLINK_WriteReg(R15 (PC), 0x20000104)  returns 0x00 (0000ms, 0884ms total)
T19D0 002:600 JLINK_WriteReg(XPSR, 0x01000000)  returns 0x00 (0000ms, 0884ms total)
T19D0 002:600 JLINK_WriteReg(MSP, 0x20001000)  returns 0x00 (0000ms, 0884ms total)
T19D0 002:600 JLINK_WriteReg(PSP, 0x20001000)  returns 0x00 (0000ms, 0884ms total)
T19D0 002:600 JLINK_WriteReg(CFBP, 0x00000000)  returns 0x00 (0000ms, 0884ms total)
T19D0 002:600 JLINK_SetBPEx(Addr = 0x20000000, Type = 0xFFFFFFF2)  returns 0x00000003 (0000ms, 0884ms total)
T19D0 002:600 JLINK_Go() -- CPU_ReadMem(4 bytes @ 0xE0001000) -- CPU_WriteMem(4 bytes @ 0xE0001000) (0004ms, 0888ms total)
T19D0 002:605 JLINK_IsHalted()  returns FALSE (0000ms, 0889ms total)
T19D0 002:607 JLINK_IsHalted()  returns FALSE (0001ms, 0890ms total)
T19D0 002:609 JLINK_IsHalted()  returns FALSE (0001ms, 0890ms total)
T19D0 002:611 JLINK_IsHalted()  returns FALSE (0001ms, 0890ms total)
T19D0 002:613 JLINK_IsHalted()  returns FALSE (0001ms, 0890ms total)
T19D0 002:615 JLINK_IsHalted()  returns FALSE (0001ms, 0890ms total)
T19D0 002:617 JLINK_IsHalted()  returns FALSE (0001ms, 0890ms total)
T19D0 002:619 JLINK_IsHalted()  returns FALSE (0001ms, 0890ms total)
T19D0 002:621 JLINK_IsHalted()  returns FALSE (0001ms, 0890ms total)
T19D0 002:624 JLINK_IsHalted()  returns FALSE (0001ms, 0890ms total)
T19D0 002:626 JLINK_IsHalted()  returns FALSE (0001ms, 0890ms total)
T19D0 002:628 JLINK_IsHalted()  returns FALSE (0001ms, 0890ms total)
T19D0 002:630 JLINK_IsHalted() -- CPU_ReadMem(2 bytes @ 0x20000000)  returns TRUE (0004ms, 0893ms total)
T19D0 002:634 JLINK_ReadReg(R15 (PC))  returns 0x20000000 (0000ms, 0889ms total)
T19D0 002:634 JLINK_ClrBPEx(BPHandle = 0x00000003)  returns 0x00 (0000ms, 0889ms total)
T19D0 002:634 JLINK_ReadReg(R0)  returns 0x00000000 (0000ms, 0889ms total)
T19D0 002:635 JLINK_WriteMem(0x20000184, 0x027C Bytes, ...) - Data: 1A D0 06 98 00 28 0F D0 E8 17 C0 0E 40 19 41 11 ... -- CPU_WriteMem(636 bytes @ 0x20000184)  returns 0x27C (0007ms, 0896ms total)
T19D0 002:642 JLINK_WriteMem(0x20000400, 0x0184 Bytes, ...) - Data: 8B 00 C0 1A 52 41 43 08 8B 42 01 D3 4B 00 C0 1A ... -- CPU_WriteMem(388 bytes @ 0x20000400)  returns 0x184 (0005ms, 0901ms total)
T19D0 002:647 JLINK_WriteReg(R0, 0x00000800)  returns 0x00 (0000ms, 0901ms total)
T19D0 002:647 JLINK_WriteReg(R1, 0x00000400)  returns 0x00 (0000ms, 0901ms total)
T19D0 002:647 JLINK_WriteReg(R2, 0x20000184)  returns 0x00 (0000ms, 0901ms total)
T19D0 002:647 JLINK_WriteReg(R3, 0x00000000)  returns 0x00 (0000ms, 0901ms total)
T19D0 002:647 JLINK_WriteReg(R4, 0x00000000)  returns 0x00 (0000ms, 0901ms total)
T19D0 002:647 JLINK_WriteReg(R5, 0x00000000)  returns 0x00 (0000ms, 0901ms total)
T19D0 002:647 JLINK_WriteReg(R6, 0x00000000)  returns 0x00 (0000ms, 0901ms total)
T19D0 002:647 JLINK_WriteReg(R7, 0x00000000)  returns 0x00 (0000ms, 0901ms total)
T19D0 002:647 JLINK_WriteReg(R8, 0x00000000)  returns 0x00 (0000ms, 0901ms total)
T19D0 002:647 JLINK_WriteReg(R9, 0x20000180)  returns 0x00 (0000ms, 0901ms total)
T19D0 002:647 JLINK_WriteReg(R10, 0x00000000)  returns 0x00 (0000ms, 0901ms total)
T19D0 002:647 JLINK_WriteReg(R11, 0x00000000)  returns 0x00 (0000ms, 0901ms total)
T19D0 002:647 JLINK_WriteReg(R12, 0x00000000)  returns 0x00 (0000ms, 0901ms total)
T19D0 002:647 JLINK_WriteReg(R13 (SP), 0x20001000)  returns 0x00 (0000ms, 0901ms total)
T19D0 002:647 JLINK_WriteReg(R14, 0x20000001)  returns 0x00 (0000ms, 0901ms total)
T19D0 002:647 JLINK_WriteReg(R15 (PC), 0x20000104)  returns 0x00 (0000ms, 0901ms total)
T19D0 002:647 JLINK_WriteReg(XPSR, 0x01000000)  returns 0x00 (0000ms, 0901ms total)
T19D0 002:647 JLINK_WriteReg(MSP, 0x20001000)  returns 0x00 (0000ms, 0901ms total)
T19D0 002:647 JLINK_WriteReg(PSP, 0x20001000)  returns 0x00 (0000ms, 0901ms total)
T19D0 002:647 JLINK_WriteReg(CFBP, 0x00000000)  returns 0x00 (0000ms, 0901ms total)
T19D0 002:647 JLINK_SetBPEx(Addr = 0x20000000, Type = 0xFFFFFFF2)  returns 0x00000004 (0000ms, 0901ms total)
T19D0 002:647 JLINK_Go() -- CPU_ReadMem(4 bytes @ 0xE0001000) -- CPU_WriteMem(4 bytes @ 0xE0001000) (0005ms, 0906ms total)
T19D0 002:652 JLINK_IsHalted()  returns FALSE (0001ms, 0907ms total)
T19D0 002:663 JLINK_IsHalted()  returns FALSE (0001ms, 0907ms total)
T19D0 002:665 JLINK_IsHalted()  returns FALSE (0001ms, 0907ms total)
T19D0 002:667 JLINK_IsHalted()  returns FALSE (0001ms, 0907ms total)
T19D0 002:669 JLINK_IsHalted()  returns FALSE (0001ms, 0907ms total)
T19D0 002:674 JLINK_IsHalted()  returns FALSE (0001ms, 0907ms total)
T19D0 002:676 JLINK_IsHalted() -- CPU_ReadMem(2 bytes @ 0x20000000)  returns TRUE (0004ms, 0910ms total)
T19D0 002:680 JLINK_ReadReg(R15 (PC))  returns 0x20000000 (0000ms, 0906ms total)
T19D0 002:680 JLINK_ClrBPEx(BPHandle = 0x00000004)  returns 0x00 (0000ms, 0906ms total)
T19D0 002:680 JLINK_ReadReg(R0)  returns 0x00000000 (0000ms, 0906ms total)
T19D0 002:681 JLINK_WriteMem(0x20000184, 0x027C Bytes, ...) - Data: 1F 23 20 3C 1B 1B 01 D5 00 23 02 E0 E5 40 28 18 ... -- CPU_WriteMem(636 bytes @ 0x20000184)  returns 0x27C (0007ms, 0913ms total)
T19D0 002:689 JLINK_WriteMem(0x20000400, 0x0184 Bytes, ...) - Data: 0C 46 5C 40 04 D5 01 24 E4 07 63 40 30 BC 6D E6 ... -- CPU_WriteMem(388 bytes @ 0x20000400)  returns 0x184 (0004ms, 0918ms total)
T19D0 002:693 JLINK_WriteReg(R0, 0x00000C00)  returns 0x00 (0000ms, 0918ms total)
T19D0 002:693 JLINK_WriteReg(R1, 0x00000400)  returns 0x00 (0000ms, 0918ms total)
T19D0 002:693 JLINK_WriteReg(R2, 0x20000184)  returns 0x00 (0000ms, 0918ms total)
T19D0 002:693 JLINK_WriteReg(R3, 0x00000000)  returns 0x00 (0000ms, 0918ms total)
T19D0 002:693 JLINK_WriteReg(R4, 0x00000000)  returns 0x00 (0000ms, 0918ms total)
T19D0 002:693 JLINK_WriteReg(R5, 0x00000000)  returns 0x00 (0000ms, 0918ms total)
T19D0 002:693 JLINK_WriteReg(R6, 0x00000000)  returns 0x00 (0000ms, 0918ms total)
T19D0 002:693 JLINK_WriteReg(R7, 0x00000000)  returns 0x00 (0000ms, 0918ms total)
T19D0 002:693 JLINK_WriteReg(R8, 0x00000000)  returns 0x00 (0000ms, 0918ms total)
T19D0 002:693 JLINK_WriteReg(R9, 0x20000180)  returns 0x00 (0000ms, 0918ms total)
T19D0 002:693 JLINK_WriteReg(R10, 0x00000000)  returns 0x00 (0000ms, 0918ms total)
T19D0 002:693 JLINK_WriteReg(R11, 0x00000000)  returns 0x00 (0000ms, 0918ms total)
T19D0 002:693 JLINK_WriteReg(R12, 0x00000000)  returns 0x00 (0000ms, 0918ms total)
T19D0 002:693 JLINK_WriteReg(R13 (SP), 0x20001000)  returns 0x00 (0000ms, 0918ms total)
T19D0 002:693 JLINK_WriteReg(R14, 0x20000001)  returns 0x00 (0000ms, 0918ms total)
T19D0 002:693 JLINK_WriteReg(R15 (PC), 0x20000104)  returns 0x00 (0000ms, 0918ms total)
T19D0 002:693 JLINK_WriteReg(XPSR, 0x01000000)  returns 0x00 (0000ms, 0918ms total)
T19D0 002:693 JLINK_WriteReg(MSP, 0x20001000)  returns 0x00 (0000ms, 0918ms total)
T19D0 002:693 JLINK_WriteReg(PSP, 0x20001000)  returns 0x00 (0000ms, 0918ms total)
T19D0 002:693 JLINK_WriteReg(CFBP, 0x00000000)  returns 0x00 (0000ms, 0918ms total)
T19D0 002:694 JLINK_SetBPEx(Addr = 0x20000000, Type = 0xFFFFFFF2)  returns 0x00000005 (0000ms, 0919ms total)
T19D0 002:694 JLINK_Go() -- CPU_ReadMem(4 bytes @ 0xE0001000) -- CPU_WriteMem(4 bytes @ 0xE0001000) (0004ms, 0923ms total)
T19D0 002:698 JLINK_IsHalted()  returns FALSE (0001ms, 0924ms total)
T19D0 002:703 JLINK_IsHalted()  returns FALSE (0001ms, 0924ms total)
T19D0 002:705 JLINK_IsHalted()  returns FALSE (0001ms, 0924ms total)
T19D0 002:707 JLINK_IsHalted()  returns FALSE (0001ms, 0924ms total)
T19D0 002:709 JLINK_IsHalted()  returns FALSE (0001ms, 0924ms total)
T19D0 002:711 JLINK_IsHalted()  returns FALSE (0001ms, 0924ms total)
T19D0 002:713 JLINK_IsHalted()  returns FALSE (0001ms, 0924ms total)
T19D0 002:715 JLINK_IsHalted()  returns FALSE (0001ms, 0924ms total)
T19D0 002:717 JLINK_IsHalted()  returns FALSE (0001ms, 0924ms total)
T19D0 002:719 JLINK_IsHalted()  returns FALSE (0001ms, 0924ms total)
T19D0 002:721 JLINK_IsHalted()  returns FALSE (0001ms, 0924ms total)
T19D0 002:723 JLINK_IsHalted() -- CPU_ReadMem(2 bytes @ 0x20000000)  returns TRUE (0004ms, 0927ms total)
T19D0 002:727 JLINK_ReadReg(R15 (PC))  returns 0x20000000 (0000ms, 0923ms total)
T19D0 002:727 JLINK_ClrBPEx(BPHandle = 0x00000005)  returns 0x00 (0000ms, 0923ms total)
T19D0 002:727 JLINK_ReadReg(R0)  returns 0x00000000 (0000ms, 0923ms total)
T19D0 002:728 JLINK_WriteMem(0x20000184, 0x027C Bytes, ...) - Data: 20 18 00 2B 07 D0 5B 00 C9 18 04 D3 40 1C 00 29 ... -- CPU_WriteMem(636 bytes @ 0x20000184)  returns 0x27C (0007ms, 0930ms total)
T19D0 002:735 JLINK_WriteMem(0x20000400, 0x0184 Bytes, ...) - Data: 02 68 51 18 13 78 01 60 18 46 70 47 10 B5 D1 60 ... -- CPU_WriteMem(388 bytes @ 0x20000400)  returns 0x184 (0005ms, 0935ms total)
T19D0 002:740 JLINK_WriteReg(R0, 0x00001000)  returns 0x00 (0000ms, 0935ms total)
T19D0 002:740 JLINK_WriteReg(R1, 0x00000400)  returns 0x00 (0000ms, 0935ms total)
T19D0 002:740 JLINK_WriteReg(R2, 0x20000184)  returns 0x00 (0000ms, 0935ms total)
T19D0 002:740 JLINK_WriteReg(R3, 0x00000000)  returns 0x00 (0000ms, 0935ms total)
T19D0 002:740 JLINK_WriteReg(R4, 0x00000000)  returns 0x00 (0000ms, 0935ms total)
T19D0 002:740 JLINK_WriteReg(R5, 0x00000000)  returns 0x00 (0000ms, 0935ms total)
T19D0 002:740 JLINK_WriteReg(R6, 0x00000000)  returns 0x00 (0000ms, 0935ms total)
T19D0 002:740 JLINK_WriteReg(R7, 0x00000000)  returns 0x00 (0000ms, 0935ms total)
T19D0 002:740 JLINK_WriteReg(R8, 0x00000000)  returns 0x00 (0000ms, 0935ms total)
T19D0 002:740 JLINK_WriteReg(R9, 0x20000180)  returns 0x00 (0000ms, 0935ms total)
T19D0 002:740 JLINK_WriteReg(R10, 0x00000000)  returns 0x00 (0000ms, 0935ms total)
T19D0 002:740 JLINK_WriteReg(R11, 0x00000000)  returns 0x00 (0000ms, 0935ms total)
T19D0 002:740 JLINK_WriteReg(R12, 0x00000000)  returns 0x00 (0000ms, 0935ms total)
T19D0 002:740 JLINK_WriteReg(R13 (SP), 0x20001000)  returns 0x00 (0000ms, 0935ms total)
T19D0 002:740 JLINK_WriteReg(R14, 0x20000001)  returns 0x00 (0000ms, 0935ms total)
T19D0 002:740 JLINK_WriteReg(R15 (PC), 0x20000104)  returns 0x00 (0000ms, 0935ms total)
T19D0 002:740 JLINK_WriteReg(XPSR, 0x01000000)  returns 0x00 (0000ms, 0935ms total)
T19D0 002:740 JLINK_WriteReg(MSP, 0x20001000)  returns 0x00 (0000ms, 0935ms total)
T19D0 002:740 JLINK_WriteReg(PSP, 0x20001000)  returns 0x00 (0000ms, 0935ms total)
T19D0 002:740 JLINK_WriteReg(CFBP, 0x00000000)  returns 0x00 (0000ms, 0935ms total)
T19D0 002:740 JLINK_SetBPEx(Addr = 0x20000000, Type = 0xFFFFFFF2)  returns 0x00000006 (0000ms, 0935ms total)
T19D0 002:740 JLINK_Go() -- CPU_ReadMem(4 bytes @ 0xE0001000) -- CPU_WriteMem(4 bytes @ 0xE0001000) (0005ms, 0940ms total)
T19D0 002:745 JLINK_IsHalted()  returns FALSE (0001ms, 0941ms total)
T19D0 002:747 JLINK_IsHalted()  returns FALSE (0001ms, 0941ms total)
T19D0 002:749 JLINK_IsHalted()  returns FALSE (0001ms, 0941ms total)
T19D0 002:751 JLINK_IsHalted()  returns FALSE (0001ms, 0941ms total)
T19D0 002:753 JLINK_IsHalted()  returns FALSE (0001ms, 0941ms total)
T19D0 002:755 JLINK_IsHalted()  returns FALSE (0001ms, 0941ms total)
T19D0 002:757 JLINK_IsHalted()  returns FALSE (0001ms, 0941ms total)
T19D0 002:759 JLINK_IsHalted()  returns FALSE (0001ms, 0941ms total)
T19D0 002:776 JLINK_IsHalted() -- CPU_ReadMem(2 bytes @ 0x20000000)  returns TRUE (0004ms, 0944ms total)
T19D0 002:780 JLINK_ReadReg(R15 (PC))  returns 0x20000000 (0000ms, 0940ms total)
T19D0 002:780 JLINK_ClrBPEx(BPHandle = 0x00000006)  returns 0x00 (0000ms, 0940ms total)
T19D0 002:780 JLINK_ReadReg(R0)  returns 0x00000000 (0000ms, 0940ms total)
T19D0 002:781 JLINK_WriteMem(0x20000184, 0x027C Bytes, ...) - Data: E1 69 0F 98 88 47 7F 1C 02 D1 0C 98 00 28 77 D0 ... -- CPU_WriteMem(636 bytes @ 0x20000184)  returns 0x27C (0007ms, 0947ms total)
T19D0 002:788 JLINK_WriteMem(0x20000400, 0x0184 Bytes, ...) - Data: 20 79 1C D0 40 07 02 9A 00 98 0D 9B 00 92 22 46 ... -- CPU_WriteMem(388 bytes @ 0x20000400)  returns 0x184 (0005ms, 0952ms total)
T19D0 002:793 JLINK_WriteReg(R0, 0x00001400)  returns 0x00 (0000ms, 0952ms total)
T19D0 002:793 JLINK_WriteReg(R1, 0x00000400)  returns 0x00 (0000ms, 0952ms total)
T19D0 002:793 JLINK_WriteReg(R2, 0x20000184)  returns 0x00 (0000ms, 0952ms total)
T19D0 002:793 JLINK_WriteReg(R3, 0x00000000)  returns 0x00 (0000ms, 0952ms total)
T19D0 002:793 JLINK_WriteReg(R4, 0x00000000)  returns 0x00 (0000ms, 0952ms total)
T19D0 002:793 JLINK_WriteReg(R5, 0x00000000)  returns 0x00 (0000ms, 0952ms total)
T19D0 002:793 JLINK_WriteReg(R6, 0x00000000)  returns 0x00 (0000ms, 0952ms total)
T19D0 002:793 JLINK_WriteReg(R7, 0x00000000)  returns 0x00 (0000ms, 0952ms total)
T19D0 002:793 JLINK_WriteReg(R8, 0x00000000)  returns 0x00 (0000ms, 0952ms total)
T19D0 002:793 JLINK_WriteReg(R9, 0x20000180)  returns 0x00 (0000ms, 0952ms total)
T19D0 002:793 JLINK_WriteReg(R10, 0x00000000)  returns 0x00 (0000ms, 0952ms total)
T19D0 002:793 JLINK_WriteReg(R11, 0x00000000)  returns 0x00 (0000ms, 0952ms total)
T19D0 002:793 JLINK_WriteReg(R12, 0x00000000)  returns 0x00 (0000ms, 0952ms total)
T19D0 002:793 JLINK_WriteReg(R13 (SP), 0x20001000)  returns 0x00 (0000ms, 0952ms total)
T19D0 002:793 JLINK_WriteReg(R14, 0x20000001)  returns 0x00 (0000ms, 0952ms total)
T19D0 002:793 JLINK_WriteReg(R15 (PC), 0x20000104)  returns 0x00 (0000ms, 0952ms total)
T19D0 002:793 JLINK_WriteReg(XPSR, 0x01000000)  returns 0x00 (0000ms, 0952ms total)
T19D0 002:793 JLINK_WriteReg(MSP, 0x20001000)  returns 0x00 (0000ms, 0952ms total)
T19D0 002:793 JLINK_WriteReg(PSP, 0x20001000)  returns 0x00 (0000ms, 0952ms total)
T19D0 002:793 JLINK_WriteReg(CFBP, 0x00000000)  returns 0x00 (0000ms, 0952ms total)
T19D0 002:793 JLINK_SetBPEx(Addr = 0x20000000, Type = 0xFFFFFFF2)  returns 0x00000007 (0000ms, 0952ms total)
T19D0 002:793 JLINK_Go() -- CPU_ReadMem(4 bytes @ 0xE0001000) -- CPU_WriteMem(4 bytes @ 0xE0001000) (0005ms, 0957ms total)
T19D0 002:798 JLINK_IsHalted()  returns FALSE (0001ms, 0958ms total)
T19D0 002:800 JLINK_IsHalted()  returns FALSE (0001ms, 0958ms total)
T19D0 002:802 JLINK_IsHalted()  returns FALSE (0001ms, 0958ms total)
T19D0 002:804 JLINK_IsHalted()  returns FALSE (0001ms, 0958ms total)
T19D0 002:806 JLINK_IsHalted()  returns FALSE (0001ms, 0958ms total)
T19D0 002:810 JLINK_IsHalted()  returns FALSE (0001ms, 0958ms total)
T19D0 002:812 JLINK_IsHalted()  returns FALSE (0001ms, 0958ms total)
T19D0 002:814 JLINK_IsHalted()  returns FALSE (0001ms, 0958ms total)
T19D0 002:816 JLINK_IsHalted()  returns FALSE (0001ms, 0958ms total)
T19D0 002:818 JLINK_IsHalted()  returns FALSE (0001ms, 0958ms total)
T19D0 002:820 JLINK_IsHalted()  returns FALSE (0001ms, 0958ms total)
T19D0 002:822 JLINK_IsHalted() -- CPU_ReadMem(2 bytes @ 0x20000000)  returns TRUE (0004ms, 0961ms total)
T19D0 002:826 JLINK_ReadReg(R15 (PC))  returns 0x20000000 (0000ms, 0957ms total)
T19D0 002:826 JLINK_ClrBPEx(BPHandle = 0x00000007)  returns 0x00 (0000ms, 0957ms total)
T19D0 002:826 JLINK_ReadReg(R0)  returns 0x00000000 (0000ms, 0957ms total)
T19D0 002:827 JLINK_WriteMem(0x20000184, 0x027C Bytes, ...) - Data: 20 02 49 07 00 0A 01 43 20 0E 00 06 1D 22 D1 41 ... -- CPU_WriteMem(636 bytes @ 0x20000184)  returns 0x27C (0007ms, 0964ms total)
T19D0 002:834 JLINK_WriteMem(0x20000400, 0x0184 Bytes, ...) - Data: 00 F0 48 FA 40 21 B0 48 00 F0 44 FA 80 21 AE 48 ... -- CPU_WriteMem(388 bytes @ 0x20000400)  returns 0x184 (0005ms, 0969ms total)
T19D0 002:839 JLINK_WriteReg(R0, 0x00001800)  returns 0x00 (0000ms, 0969ms total)
T19D0 002:839 JLINK_WriteReg(R1, 0x00000400)  returns 0x00 (0000ms, 0969ms total)
T19D0 002:839 JLINK_WriteReg(R2, 0x20000184)  returns 0x00 (0000ms, 0969ms total)
T19D0 002:839 JLINK_WriteReg(R3, 0x00000000)  returns 0x00 (0000ms, 0969ms total)
T19D0 002:839 JLINK_WriteReg(R4, 0x00000000)  returns 0x00 (0000ms, 0969ms total)
T19D0 002:839 JLINK_WriteReg(R5, 0x00000000)  returns 0x00 (0000ms, 0969ms total)
T19D0 002:839 JLINK_WriteReg(R6, 0x00000000)  returns 0x00 (0000ms, 0969ms total)
T19D0 002:839 JLINK_WriteReg(R7, 0x00000000)  returns 0x00 (0000ms, 0969ms total)
T19D0 002:839 JLINK_WriteReg(R8, 0x00000000)  returns 0x00 (0000ms, 0969ms total)
T19D0 002:839 JLINK_WriteReg(R9, 0x20000180)  returns 0x00 (0000ms, 0969ms total)
T19D0 002:839 JLINK_WriteReg(R10, 0x00000000)  returns 0x00 (0000ms, 0969ms total)
T19D0 002:839 JLINK_WriteReg(R11, 0x00000000)  returns 0x00 (0000ms, 0969ms total)
T19D0 002:839 JLINK_WriteReg(R12, 0x00000000)  returns 0x00 (0000ms, 0969ms total)
T19D0 002:839 JLINK_WriteReg(R13 (SP), 0x20001000)  returns 0x00 (0000ms, 0969ms total)
T19D0 002:839 JLINK_WriteReg(R14, 0x20000001)  returns 0x00 (0000ms, 0969ms total)
T19D0 002:839 JLINK_WriteReg(R15 (PC), 0x20000104)  returns 0x00 (0000ms, 0969ms total)
T19D0 002:839 JLINK_WriteReg(XPSR, 0x01000000)  returns 0x00 (0000ms, 0969ms total)
T19D0 002:839 JLINK_WriteReg(MSP, 0x20001000)  returns 0x00 (0000ms, 0969ms total)
T19D0 002:839 JLINK_WriteReg(PSP, 0x20001000)  returns 0x00 (0000ms, 0969ms total)
T19D0 002:839 JLINK_WriteReg(CFBP, 0x00000000)  returns 0x00 (0000ms, 0969ms total)
T19D0 002:839 JLINK_SetBPEx(Addr = 0x20000000, Type = 0xFFFFFFF2)  returns 0x00000008 (0000ms, 0969ms total)
T19D0 002:839 JLINK_Go() -- CPU_ReadMem(4 bytes @ 0xE0001000) -- CPU_WriteMem(4 bytes @ 0xE0001000) (0006ms, 0975ms total)
T19D0 002:845 JLINK_IsHalted()  returns FALSE (0001ms, 0976ms total)
T19D0 002:847 JLINK_IsHalted()  returns FALSE (0001ms, 0976ms total)
T19D0 002:849 JLINK_IsHalted()  returns FALSE (0001ms, 0976ms total)
T19D0 002:851 JLINK_IsHalted()  returns FALSE (0001ms, 0976ms total)
T19D0 002:853 JLINK_IsHalted()  returns FALSE (0001ms, 0976ms total)
T19D0 002:855 JLINK_IsHalted()  returns FALSE (0001ms, 0976ms total)
T19D0 002:857 JLINK_IsHalted()  returns FALSE (0001ms, 0976ms total)
T19D0 002:859 JLINK_IsHalted()  returns FALSE (0001ms, 0976ms total)
T19D0 002:861 JLINK_IsHalted()  returns FALSE (0001ms, 0976ms total)
T19D0 002:863 JLINK_IsHalted()  returns FALSE (0001ms, 0976ms total)
T19D0 002:865 JLINK_IsHalted()  returns FALSE (0001ms, 0976ms total)
T19D0 002:867 JLINK_IsHalted()  returns FALSE (0001ms, 0976ms total)
T19D0 002:882 JLINK_IsHalted() -- CPU_ReadMem(2 bytes @ 0x20000000)  returns TRUE (0004ms, 0979ms total)
T19D0 002:886 JLINK_ReadReg(R15 (PC))  returns 0x20000000 (0000ms, 0975ms total)
T19D0 002:886 JLINK_ClrBPEx(BPHandle = 0x00000008)  returns 0x00 (0000ms, 0975ms total)
T19D0 002:886 JLINK_ReadReg(R0)  returns 0x00000000 (0000ms, 0975ms total)
T19D0 002:887 JLINK_WriteMem(0x20000184, 0x027C Bytes, ...) - Data: 50 48 40 30 00 F0 84 F9 01 21 49 03 4D 48 40 30 ... -- CPU_WriteMem(636 bytes @ 0x20000184)  returns 0x27C (0007ms, 0982ms total)
T19D0 002:894 JLINK_WriteMem(0x20000400, 0x0184 Bytes, ...) - Data: 00 F0 48 F8 01 21 49 02 21 48 60 30 00 F0 42 F8 ... -- CPU_WriteMem(388 bytes @ 0x20000400)  returns 0x184 (0005ms, 0987ms total)
T19D0 002:899 JLINK_WriteReg(R0, 0x00001C00)  returns 0x00 (0000ms, 0987ms total)
T19D0 002:899 JLINK_WriteReg(R1, 0x00000400)  returns 0x00 (0000ms, 0987ms total)
T19D0 002:899 JLINK_WriteReg(R2, 0x20000184)  returns 0x00 (0000ms, 0987ms total)
T19D0 002:899 JLINK_WriteReg(R3, 0x00000000)  returns 0x00 (0000ms, 0987ms total)
T19D0 002:899 JLINK_WriteReg(R4, 0x00000000)  returns 0x00 (0000ms, 0987ms total)
T19D0 002:899 JLINK_WriteReg(R5, 0x00000000)  returns 0x00 (0000ms, 0987ms total)
T19D0 002:899 JLINK_WriteReg(R6, 0x00000000)  returns 0x00 (0000ms, 0987ms total)
T19D0 002:899 JLINK_WriteReg(R7, 0x00000000)  returns 0x00 (0000ms, 0987ms total)
T19D0 002:899 JLINK_WriteReg(R8, 0x00000000)  returns 0x00 (0000ms, 0987ms total)
T19D0 002:899 JLINK_WriteReg(R9, 0x20000180)  returns 0x00 (0000ms, 0987ms total)
T19D0 002:899 JLINK_WriteReg(R10, 0x00000000)  returns 0x00 (0000ms, 0987ms total)
T19D0 002:899 JLINK_WriteReg(R11, 0x00000000)  returns 0x00 (0000ms, 0987ms total)
T19D0 002:899 JLINK_WriteReg(R12, 0x00000000)  returns 0x00 (0000ms, 0987ms total)
T19D0 002:899 JLINK_WriteReg(R13 (SP), 0x20001000)  returns 0x00 (0000ms, 0987ms total)
T19D0 002:899 JLINK_WriteReg(R14, 0x20000001)  returns 0x00 (0000ms, 0987ms total)
T19D0 002:899 JLINK_WriteReg(R15 (PC), 0x20000104)  returns 0x00 (0000ms, 0987ms total)
T19D0 002:899 JLINK_WriteReg(XPSR, 0x01000000)  returns 0x00 (0000ms, 0987ms total)
T19D0 002:899 JLINK_WriteReg(MSP, 0x20001000)  returns 0x00 (0000ms, 0987ms total)
T19D0 002:899 JLINK_WriteReg(PSP, 0x20001000)  returns 0x00 (0000ms, 0987ms total)
T19D0 002:899 JLINK_WriteReg(CFBP, 0x00000000)  returns 0x00 (0000ms, 0987ms total)
T19D0 002:899 JLINK_SetBPEx(Addr = 0x20000000, Type = 0xFFFFFFF2)  returns 0x00000009 (0000ms, 0987ms total)
T19D0 002:899 JLINK_Go() -- CPU_ReadMem(4 bytes @ 0xE0001000) -- CPU_WriteMem(4 bytes @ 0xE0001000) (0005ms, 0992ms total)
T19D0 002:904 JLINK_IsHalted()  returns FALSE (0001ms, 0993ms total)
T19D0 002:906 JLINK_IsHalted()  returns FALSE (0001ms, 0993ms total)
T19D0 002:908 JLINK_IsHalted()  returns FALSE (0001ms, 0993ms total)
T19D0 002:910 JLINK_IsHalted()  returns FALSE (0001ms, 0993ms total)
T19D0 002:912 JLINK_IsHalted()  returns FALSE (0001ms, 0993ms total)
T19D0 002:914 JLINK_IsHalted()  returns FALSE (0001ms, 0993ms total)
T19D0 002:916 JLINK_IsHalted()  returns FALSE (0001ms, 0993ms total)
T19D0 002:918 JLINK_IsHalted()  returns FALSE (0001ms, 0993ms total)
T19D0 002:920 JLINK_IsHalted()  returns FALSE (0001ms, 0993ms total)
T19D0 002:922 JLINK_IsHalted()  returns FALSE (0001ms, 0993ms total)
T19D0 002:924 JLINK_IsHalted()  returns FALSE (0001ms, 0993ms total)
T19D0 002:926 JLINK_IsHalted()  returns FALSE (0001ms, 0993ms total)
T19D0 002:928 JLINK_IsHalted() -- CPU_ReadMem(2 bytes @ 0x20000000)  returns TRUE (0004ms, 0996ms total)
T19D0 002:932 JLINK_ReadReg(R15 (PC))  returns 0x20000000 (0000ms, 0992ms total)
T19D0 002:932 JLINK_ClrBPEx(BPHandle = 0x00000009)  returns 0x00 (0000ms, 0992ms total)
T19D0 002:932 JLINK_ReadReg(R0)  returns 0x00000000 (0000ms, 0992ms total)
T19D0 002:933 JLINK_WriteMem(0x20000184, 0x027C Bytes, ...) - Data: 00 0C 00 40 10 B5 00 24 04 E0 60 1C C4 B2 01 20 ... -- CPU_WriteMem(636 bytes @ 0x20000184)  returns 0x27C (0007ms, 0999ms total)
T19D0 002:940 JLINK_WriteMem(0x20000400, 0x0184 Bytes, ...) - Data: 01 E0 00 26 D6 71 66 68 0E 40 EE 40 30 46 01 28 ... -- CPU_WriteMem(388 bytes @ 0x20000400)  returns 0x184 (0005ms, 1004ms total)
T19D0 002:945 JLINK_WriteReg(R0, 0x00002000)  returns 0x00 (0000ms, 1004ms total)
T19D0 002:945 JLINK_WriteReg(R1, 0x00000400)  returns 0x00 (0000ms, 1004ms total)
T19D0 002:945 JLINK_WriteReg(R2, 0x20000184)  returns 0x00 (0000ms, 1004ms total)
T19D0 002:945 JLINK_WriteReg(R3, 0x00000000)  returns 0x00 (0000ms, 1004ms total)
T19D0 002:945 JLINK_WriteReg(R4, 0x00000000)  returns 0x00 (0000ms, 1004ms total)
T19D0 002:945 JLINK_WriteReg(R5, 0x00000000)  returns 0x00 (0000ms, 1004ms total)
T19D0 002:945 JLINK_WriteReg(R6, 0x00000000)  returns 0x00 (0000ms, 1004ms total)
T19D0 002:945 JLINK_WriteReg(R7, 0x00000000)  returns 0x00 (0000ms, 1004ms total)
T19D0 002:945 JLINK_WriteReg(R8, 0x00000000)  returns 0x00 (0000ms, 1004ms total)
T19D0 002:945 JLINK_WriteReg(R9, 0x20000180)  returns 0x00 (0000ms, 1004ms total)
T19D0 002:945 JLINK_WriteReg(R10, 0x00000000)  returns 0x00 (0000ms, 1004ms total)
T19D0 002:945 JLINK_WriteReg(R11, 0x00000000)  returns 0x00 (0000ms, 1004ms total)
T19D0 002:945 JLINK_WriteReg(R12, 0x00000000)  returns 0x00 (0000ms, 1004ms total)
T19D0 002:945 JLINK_WriteReg(R13 (SP), 0x20001000)  returns 0x00 (0000ms, 1004ms total)
T19D0 002:945 JLINK_WriteReg(R14, 0x20000001)  returns 0x00 (0000ms, 1004ms total)
T19D0 002:945 JLINK_WriteReg(R15 (PC), 0x20000104)  returns 0x00 (0000ms, 1004ms total)
T19D0 002:945 JLINK_WriteReg(XPSR, 0x01000000)  returns 0x00 (0000ms, 1004ms total)
T19D0 002:945 JLINK_WriteReg(MSP, 0x20001000)  returns 0x00 (0000ms, 1004ms total)
T19D0 002:945 JLINK_WriteReg(PSP, 0x20001000)  returns 0x00 (0000ms, 1004ms total)
T19D0 002:945 JLINK_WriteReg(CFBP, 0x00000000)  returns 0x00 (0000ms, 1004ms total)
T19D0 002:945 JLINK_SetBPEx(Addr = 0x20000000, Type = 0xFFFFFFF2)  returns 0x0000000A (0000ms, 1004ms total)
T19D0 002:945 JLINK_Go() -- CPU_ReadMem(4 bytes @ 0xE0001000) -- CPU_WriteMem(4 bytes @ 0xE0001000) (0004ms, 1008ms total)
T19D0 002:950 JLINK_IsHalted()  returns FALSE (0001ms, 1010ms total)
T19D0 002:952 JLINK_IsHalted()  returns FALSE (0001ms, 1010ms total)
T19D0 002:954 JLINK_IsHalted()  returns FALSE (0001ms, 1010ms total)
T19D0 002:956 JLINK_IsHalted()  returns FALSE (0001ms, 1010ms total)
T19D0 002:958 JLINK_IsHalted()  returns FALSE (0001ms, 1010ms total)
T19D0 002:960 JLINK_IsHalted()  returns FALSE (0001ms, 1010ms total)
T19D0 002:966 JLINK_IsHalted()  returns FALSE (0001ms, 1010ms total)
T19D0 002:968 JLINK_IsHalted()  returns FALSE (0001ms, 1010ms total)
T19D0 002:970 JLINK_IsHalted()  returns FALSE (0001ms, 1010ms total)
T19D0 002:972 JLINK_IsHalted()  returns FALSE (0001ms, 1010ms total)
T19D0 002:974 JLINK_IsHalted() -- CPU_ReadMem(2 bytes @ 0x20000000)  returns TRUE (0004ms, 1013ms total)
T19D0 002:978 JLINK_ReadReg(R15 (PC))  returns 0x20000000 (0000ms, 1009ms total)
T19D0 002:978 JLINK_ClrBPEx(BPHandle = 0x0000000A)  returns 0x00 (0000ms, 1009ms total)
T19D0 002:978 JLINK_ReadReg(R0)  returns 0x00000000 (0000ms, 1009ms total)
T19D0 002:979 JLINK_WriteMem(0x20000184, 0x027C Bytes, ...) - Data: 81 61 00 E0 41 61 70 47 8A B2 02 61 70 47 10 B5 ... -- CPU_WriteMem(636 bytes @ 0x20000184)  returns 0x27C (0007ms, 1016ms total)
T19D0 002:986 JLINK_WriteMem(0x20000400, 0x0184 Bytes, ...) - Data: 60 48 01 F0 F3 F9 01 21 5E 48 15 38 01 F0 EE F9 ... -- CPU_WriteMem(388 bytes @ 0x20000400)  returns 0x184 (0004ms, 1020ms total)
T19D0 002:990 JLINK_WriteReg(R0, 0x00002400)  returns 0x00 (0000ms, 1020ms total)
T19D0 002:991 JLINK_WriteReg(R1, 0x00000400)  returns 0x00 (0000ms, 1021ms total)
T19D0 002:991 JLINK_WriteReg(R2, 0x20000184)  returns 0x00 (0000ms, 1021ms total)
T19D0 002:991 JLINK_WriteReg(R3, 0x00000000)  returns 0x00 (0000ms, 1021ms total)
T19D0 002:991 JLINK_WriteReg(R4, 0x00000000)  returns 0x00 (0000ms, 1021ms total)
T19D0 002:991 JLINK_WriteReg(R5, 0x00000000)  returns 0x00 (0000ms, 1021ms total)
T19D0 002:991 JLINK_WriteReg(R6, 0x00000000)  returns 0x00 (0000ms, 1021ms total)
T19D0 002:991 JLINK_WriteReg(R7, 0x00000000)  returns 0x00 (0000ms, 1021ms total)
T19D0 002:991 JLINK_WriteReg(R8, 0x00000000)  returns 0x00 (0000ms, 1021ms total)
T19D0 002:991 JLINK_WriteReg(R9, 0x20000180)  returns 0x00 (0000ms, 1021ms total)
T19D0 002:991 JLINK_WriteReg(R10, 0x00000000)  returns 0x00 (0000ms, 1021ms total)
T19D0 002:991 JLINK_WriteReg(R11, 0x00000000)  returns 0x00 (0000ms, 1021ms total)
T19D0 002:991 JLINK_WriteReg(R12, 0x00000000)  returns 0x00 (0000ms, 1021ms total)
T19D0 002:991 JLINK_WriteReg(R13 (SP), 0x20001000)  returns 0x00 (0000ms, 1021ms total)
T19D0 002:991 JLINK_WriteReg(R14, 0x20000001)  returns 0x00 (0000ms, 1021ms total)
T19D0 002:991 JLINK_WriteReg(R15 (PC), 0x20000104)  returns 0x00 (0000ms, 1021ms total)
T19D0 002:991 JLINK_WriteReg(XPSR, 0x01000000)  returns 0x00 (0000ms, 1021ms total)
T19D0 002:991 JLINK_WriteReg(MSP, 0x20001000)  returns 0x00 (0000ms, 1021ms total)
T19D0 002:991 JLINK_WriteReg(PSP, 0x20001000)  returns 0x00 (0000ms, 1021ms total)
T19D0 002:991 JLINK_WriteReg(CFBP, 0x00000000)  returns 0x00 (0000ms, 1021ms total)
T19D0 002:991 JLINK_SetBPEx(Addr = 0x20000000, Type = 0xFFFFFFF2)  returns 0x0000000B (0000ms, 1021ms total)
T19D0 002:991 JLINK_Go() -- CPU_ReadMem(4 bytes @ 0xE0001000) -- CPU_WriteMem(4 bytes @ 0xE0001000) (0004ms, 1025ms total)
T19D0 002:996 JLINK_IsHalted()  returns FALSE (0000ms, 1025ms total)
T19D0 003:009 JLINK_IsHalted()  returns FALSE (0001ms, 1026ms total)
T19D0 003:011 JLINK_IsHalted()  returns FALSE (0001ms, 1026ms total)
T19D0 003:013 JLINK_IsHalted()  returns FALSE (0001ms, 1026ms total)
T19D0 003:015 JLINK_IsHalted()  returns FALSE (0001ms, 1026ms total)
T19D0 003:017 JLINK_IsHalted()  returns FALSE (0001ms, 1026ms total)
T19D0 003:019 JLINK_IsHalted()  returns FALSE (0001ms, 1026ms total)
T19D0 003:021 JLINK_IsHalted() -- CPU_ReadMem(2 bytes @ 0x20000000)  returns TRUE (0004ms, 1029ms total)
T19D0 003:026 JLINK_ReadReg(R15 (PC))  returns 0x20000000 (0000ms, 1025ms total)
T19D0 003:026 JLINK_ClrBPEx(BPHandle = 0x0000000B)  returns 0x00 (0000ms, 1025ms total)
T19D0 003:026 JLINK_ReadReg(R0)  returns 0x00000000 (0000ms, 1025ms total)
T19D0 003:027 JLINK_WriteMem(0x20000184, 0x027C Bytes, ...) - Data: 1F 00 00 01 08 00 00 02 18 00 00 03 05 00 00 04 ... -- CPU_WriteMem(636 bytes @ 0x20000184)  returns 0x27C (0007ms, 1032ms total)
T19D0 003:034 JLINK_WriteMem(0x20000400, 0x0184 Bytes, ...) - Data: 0A 00 00 00 6F 73 51 75 65 75 65 49 6E 69 74 20 ... -- CPU_WriteMem(388 bytes @ 0x20000400)  returns 0x184 (0005ms, 1037ms total)
T19D0 003:039 JLINK_WriteReg(R0, 0x00002800)  returns 0x00 (0000ms, 1037ms total)
T19D0 003:039 JLINK_WriteReg(R1, 0x00000400)  returns 0x00 (0000ms, 1037ms total)
T19D0 003:039 JLINK_WriteReg(R2, 0x20000184)  returns 0x00 (0000ms, 1037ms total)
T19D0 003:039 JLINK_WriteReg(R3, 0x00000000)  returns 0x00 (0000ms, 1037ms total)
T19D0 003:039 JLINK_WriteReg(R4, 0x00000000)  returns 0x00 (0000ms, 1037ms total)
T19D0 003:039 JLINK_WriteReg(R5, 0x00000000)  returns 0x00 (0000ms, 1037ms total)
T19D0 003:039 JLINK_WriteReg(R6, 0x00000000)  returns 0x00 (0000ms, 1037ms total)
T19D0 003:039 JLINK_WriteReg(R7, 0x00000000)  returns 0x00 (0000ms, 1037ms total)
T19D0 003:039 JLINK_WriteReg(R8, 0x00000000)  returns 0x00 (0000ms, 1037ms total)
T19D0 003:039 JLINK_WriteReg(R9, 0x20000180)  returns 0x00 (0000ms, 1037ms total)
T19D0 003:039 JLINK_WriteReg(R10, 0x00000000)  returns 0x00 (0000ms, 1037ms total)
T19D0 003:039 JLINK_WriteReg(R11, 0x00000000)  returns 0x00 (0000ms, 1037ms total)
T19D0 003:039 JLINK_WriteReg(R12, 0x00000000)  returns 0x00 (0000ms, 1037ms total)
T19D0 003:039 JLINK_WriteReg(R13 (SP), 0x20001000)  returns 0x00 (0000ms, 1037ms total)
T19D0 003:039 JLINK_WriteReg(R14, 0x20000001)  returns 0x00 (0000ms, 1037ms total)
T19D0 003:039 JLINK_WriteReg(R15 (PC), 0x20000104)  returns 0x00 (0000ms, 1037ms total)
T19D0 003:039 JLINK_WriteReg(XPSR, 0x01000000)  returns 0x00 (0000ms, 1037ms total)
T19D0 003:039 JLINK_WriteReg(MSP, 0x20001000)  returns 0x00 (0000ms, 1037ms total)
T19D0 003:039 JLINK_WriteReg(PSP, 0x20001000)  returns 0x00 (0000ms, 1037ms total)
T19D0 003:039 JLINK_WriteReg(CFBP, 0x00000000)  returns 0x00 (0000ms, 1037ms total)
T19D0 003:039 JLINK_SetBPEx(Addr = 0x20000000, Type = 0xFFFFFFF2)  returns 0x0000000C (0000ms, 1037ms total)
T19D0 003:039 JLINK_Go() -- CPU_ReadMem(4 bytes @ 0xE0001000) -- CPU_WriteMem(4 bytes @ 0xE0001000) (0005ms, 1042ms total)
T19D0 003:044 JLINK_IsHalted()  returns FALSE (0001ms, 1043ms total)
T19D0 003:047 JLINK_IsHalted()  returns FALSE (0001ms, 1043ms total)
T19D0 003:049 JLINK_IsHalted()  returns FALSE (0001ms, 1043ms total)
T19D0 003:051 JLINK_IsHalted()  returns FALSE (0001ms, 1043ms total)
T19D0 003:053 JLINK_IsHalted()  returns FALSE (0001ms, 1043ms total)
T19D0 003:055 JLINK_IsHalted()  returns FALSE (0001ms, 1043ms total)
T19D0 003:057 JLINK_IsHalted()  returns FALSE (0001ms, 1043ms total)
T19D0 003:059 JLINK_IsHalted()  returns FALSE (0001ms, 1043ms total)
T19D0 003:061 JLINK_IsHalted()  returns FALSE (0001ms, 1043ms total)
T19D0 003:063 JLINK_IsHalted()  returns FALSE (0001ms, 1043ms total)
T19D0 003:065 JLINK_IsHalted()  returns FALSE (0001ms, 1043ms total)
T19D0 003:067 JLINK_IsHalted()  returns FALSE (0001ms, 1043ms total)
T19D0 003:069 JLINK_IsHalted() -- CPU_ReadMem(2 bytes @ 0x20000000)  returns TRUE (0004ms, 1046ms total)
T19D0 003:073 JLINK_ReadReg(R15 (PC))  returns 0x20000000 (0000ms, 1042ms total)
T19D0 003:073 JLINK_ClrBPEx(BPHandle = 0x0000000C)  returns 0x00 (0000ms, 1042ms total)
T19D0 003:073 JLINK_ReadReg(R0)  returns 0x00000000 (0000ms, 1042ms total)
T19D0 003:074 JLINK_WriteMem(0x20000184, 0x027C Bytes, ...) - Data: 01 D0 01 20 F7 E7 FD F7 02 FB 02 90 20 E0 A8 68 ... -- CPU_WriteMem(636 bytes @ 0x20000184)  returns 0x27C (0007ms, 1049ms total)
T19D0 003:081 JLINK_WriteMem(0x20000400, 0x0184 Bytes, ...) - Data: 02 98 FD F7 CE F9 00 F0 6B F9 A8 88 40 21 08 40 ... -- CPU_WriteMem(388 bytes @ 0x20000400)  returns 0x184 (0005ms, 1054ms total)
T19D0 003:086 JLINK_WriteReg(R0, 0x00002C00)  returns 0x00 (0000ms, 1054ms total)
T19D0 003:086 JLINK_WriteReg(R1, 0x00000400)  returns 0x00 (0000ms, 1054ms total)
T19D0 003:086 JLINK_WriteReg(R2, 0x20000184)  returns 0x00 (0000ms, 1054ms total)
T19D0 003:086 JLINK_WriteReg(R3, 0x00000000)  returns 0x00 (0000ms, 1054ms total)
T19D0 003:086 JLINK_WriteReg(R4, 0x00000000)  returns 0x00 (0000ms, 1054ms total)
T19D0 003:086 JLINK_WriteReg(R5, 0x00000000)  returns 0x00 (0000ms, 1054ms total)
